#           v(1)       v(4)       v(3)       i(Vbias)   i(Rs.Xcel1 i(Rs.Xcel4 i(Rs.Xcel1 i(Rs.Xcel1 v(Dbypass1 v(Dbypass2 i(Dbypass1 i(Dbypass2 p(Dbypass1 p(Dbypass2
 0.         0.1286    -1.1565     0.38581    12.899     4.2987     1.3054     4.3        4.3       -0.38581    0.38568   -1.E-6      2.9933     385.81E-9  1.1545    
 0.01       0.13194   -1.1465     0.39581    12.899     4.2986     1.3054     4.3        4.3       -0.39581    0.38568   -1.E-6      2.9932     395.81E-9  1.1544    
 0.02       0.13527   -1.1365     0.40581    12.899     4.2986     1.3054     4.3        4.3       -0.40581    0.38568   -1.E-6      2.9932     405.81E-9  1.1544    
 0.03       0.1386    -1.1265     0.41581    12.898     4.2986     1.3054     4.2999     4.2999    -0.41581    0.38568   -1.E-6      2.9932     415.81E-9  1.1544    
 0.04       0.14194   -1.1165     0.42581    12.898     4.2985     1.3054     4.2999     4.2999    -0.42581    0.38568   -1.E-6      2.9931     425.81E-9  1.1544    
 0.05       0.14527   -1.1065     0.43581    12.898     4.2985     1.3054     4.2999     4.2999    -0.43581    0.38568   -1.E-6      2.9931     435.81E-9  1.1544    
 0.06       0.1486    -1.0965     0.44581    12.898     4.2985     1.3054     4.2999     4.2999    -0.44581    0.38568   -1.E-6      2.993      445.81E-9  1.1544    
 0.07       0.15194   -1.0865     0.45581    12.898     4.2984     1.3054     4.2999     4.2999    -0.45581    0.38568   -1.E-6      2.993      455.81E-9  1.1543    
 0.08       0.15527   -1.0765     0.46581    12.898     4.2984     1.3054     4.2999     4.2999    -0.46581    0.38568   -1.E-6      2.993      465.81E-9  1.1543    
 0.09       0.1586    -1.0665     0.47581    12.898     4.2984     1.3054     4.2998     4.2998    -0.47581    0.38568   -1.E-6      2.9929     475.81E-9  1.1543    
 0.1        0.16194   -1.0565     0.48581    12.898     4.2983     1.3054     4.2998     4.2998    -0.48581    0.38568   -1.E-6      2.9929     485.81E-9  1.1543    
 0.11       0.16527   -1.0465     0.49581    12.898     4.2983     1.3054     4.2998     4.2998    -0.49581    0.38568   -1.E-6      2.9928     495.81E-9  1.1543    
 0.12       0.1686    -1.0365     0.50581    12.898     4.2982     1.3054     4.2998     4.2998    -0.50581    0.38568   -1.E-6      2.9928     505.81E-9  1.1543    
 0.13       0.17194   -1.0265     0.51581    12.898     4.2982     1.3054     4.2998     4.2998    -0.51581    0.38568   -1.E-6      2.9928     515.81E-9  1.1542    
 0.14       0.17527   -1.0165     0.52581    12.898     4.2982     1.3054     4.2998     4.2998    -0.52581    0.38568   -1.E-6      2.9927     525.81E-9  1.1542    
 0.15       0.1786    -1.0065     0.53581    12.898     4.2981     1.3054     4.2997     4.2997    -0.53581    0.38568   -1.E-6      2.9927     535.81E-9  1.1542    
 0.16       0.18194   -0.99654    0.54581    12.898     4.2981     1.3054     4.2997     4.2997    -0.54581    0.38568   -1.E-6      2.9926     545.81E-9  1.1542    
 0.17       0.18527   -0.98654    0.55581    12.897     4.298      1.3054     4.2997     4.2997    -0.55581    0.38568   -1.E-6      2.9926     555.81E-9  1.1542    
 0.18       0.1886    -0.97654    0.56581    12.897     4.298      1.3054     4.2997     4.2997    -0.56581    0.38568   -1.E-6      2.9926     565.81E-9  1.1542    
 0.19       0.19194   -0.96654    0.57581    12.897     4.2979     1.3054     4.2997     4.2997    -0.57581    0.38568   -1.E-6      2.9925     575.81E-9  1.1541    
 0.2        0.19527   -0.95654    0.58581    12.897     4.2979     1.3054     4.2997     4.2997    -0.58581    0.38568   -1.E-6      2.9925     585.81E-9  1.1541    
 0.21       0.1986    -0.94654    0.59581    12.897     4.2978     1.3054     4.2996     4.2996    -0.59581    0.38568   -1.E-6      2.9924     595.81E-9  1.1541    
 0.22       0.20193   -0.93654    0.6058     12.897     4.2978     1.3054     4.2996     4.2996    -0.6058     0.38568   -1.E-6      2.9924     605.8E-9   1.1541    
 0.23       0.20527   -0.92654    0.6158     12.897     4.2977     1.3054     4.2996     4.2996    -0.6158     0.38568   -1.E-6      2.9923     615.8E-9   1.1541    
 0.24       0.2086    -0.91654    0.6258     12.897     4.2977     1.3054     4.2996     4.2996    -0.6258     0.38567   -1.E-6      2.9923     625.8E-9   1.154     
 0.25       0.21193   -0.90654    0.6358     12.897     4.2976     1.3054     4.2996     4.2996    -0.6358     0.38567   -1.E-6      2.9922     635.8E-9   1.154     
 0.26       0.21527   -0.89654    0.6458     12.897     4.2976     1.3054     4.2996     4.2996    -0.6458     0.38567   -1.E-6      2.9922     645.8E-9   1.154     
 0.27       0.2186    -0.88654    0.6558     12.897     4.2975     1.3054     4.2995     4.2995    -0.6558     0.38567   -1.E-6      2.9921     655.8E-9   1.154     
 0.28       0.22193   -0.87654    0.6658     12.897     4.2975     1.3054     4.2995     4.2995    -0.6658     0.38567   -1.E-6      2.992      665.8E-9   1.154     
 0.29       0.22527   -0.86654    0.6758     12.896     4.2974     1.3054     4.2995     4.2995    -0.6758     0.38567   -1.E-6      2.992      675.8E-9   1.1539    
 0.3        0.2286    -0.85654    0.6858     12.896     4.2973     1.3054     4.2995     4.2995    -0.6858     0.38567   -1.E-6      2.9919     685.8E-9   1.1539    
 0.31       0.23193   -0.84654    0.6958     12.896     4.2973     1.3054     4.2995     4.2995    -0.6958     0.38567   -1.E-6      2.9919     695.8E-9   1.1539    
 0.32       0.23527   -0.83654    0.7058     12.896     4.2972     1.3054     4.2995     4.2995    -0.7058     0.38567   -1.E-6      2.9918     705.8E-9   1.1538    
 0.33       0.2386    -0.82654    0.7158     12.896     4.2971     1.3054     4.2994     4.2994    -0.7158     0.38567   -1.E-6      2.9917     715.8E-9   1.1538    
 0.34       0.24193   -0.81654    0.7258     12.896     4.2971     1.3054     4.2994     4.2994    -0.7258     0.38567   -1.E-6      2.9916     725.8E-9   1.1538    
 0.35       0.24527   -0.80654    0.7358     12.896     4.297      1.3054     4.2994     4.2994    -0.7358     0.38567   -1.E-6      2.9916     735.8E-9   1.1538    
 0.36       0.2486    -0.79654    0.7458     12.896     4.2969     1.3054     4.2994     4.2994    -0.7458     0.38567   -1.E-6      2.9915     745.8E-9   1.1537    
 0.37       0.25193   -0.78654    0.7558     12.896     4.2968     1.3054     4.2994     4.2994    -0.7558     0.38567   -1.E-6      2.9914     755.8E-9   1.1537    
 0.38       0.25527   -0.77654    0.7658     12.895     4.2967     1.3054     4.2994     4.2994    -0.7658     0.38567   -1.E-6      2.9913     765.8E-9   1.1536    
 0.39       0.2586    -0.76654    0.77579    12.895     4.2966     1.3054     4.2993     4.2993    -0.77579    0.38567   -1.E-6      2.9912     775.79E-9  1.1536    
 0.4        0.26193   -0.75654    0.78579    12.895     4.2965     1.3054     4.2993     4.2993    -0.78579    0.38566   -1.E-6      2.9911     785.79E-9  1.1536    
 0.41       0.26526   -0.74654    0.79579    12.895     4.2964     1.3054     4.2993     4.2993    -0.79579    0.38566   -1.E-6      2.991      795.79E-9  1.1535    
 0.42       0.2686    -0.73654    0.80579    12.895     4.2963     1.3054     4.2993     4.2993    -0.80579    0.38566   -1.E-6      2.9909     805.79E-9  1.1535    
 0.43       0.27193   -0.72654    0.81579    12.895     4.2962     1.3054     4.2993     4.2993    -0.81579    0.38566   -1.E-6      2.9907     815.79E-9  1.1534    
 0.44       0.27526   -0.71654    0.82579    12.895     4.296      1.3054     4.2993     4.2993    -0.82579    0.38566   -1.E-6      2.9906     825.79E-9  1.1534    
 0.45       0.2786    -0.70654    0.83579    12.894     4.2959     1.3054     4.2992     4.2992    -0.83579    0.38566   -1.E-6      2.9905     835.79E-9  1.1533    
 0.46       0.28193   -0.69654    0.84579    12.894     4.2957     1.3054     4.2992     4.2992    -0.84579    0.38566   -1.E-6      2.9903     845.79E-9  1.1532    
 0.47       0.28526   -0.68654    0.85579    12.894     4.2956     1.3054     4.2992     4.2992    -0.85579    0.38566   -1.E-6      2.9901     855.79E-9  1.1532    
 0.48       0.28859   -0.67654    0.86578    12.894     4.2954     1.3054     4.2992     4.2992    -0.86578    0.38566   -1.E-6      2.99       865.78E-9  1.1531    
 0.49       0.29193   -0.66654    0.87578    12.894     4.2952     1.3054     4.2992     4.2992    -0.87578    0.38565   -1.E-6      2.9898     875.78E-9  1.153     
 0.5        0.29526   -0.65654    0.88578    12.893     4.295      1.3054     4.2992     4.2992    -0.88578    0.38565   -1.E-6      2.9896     885.78E-9  1.1529    
 0.51       0.29859   -0.64654    0.89578    12.893     4.2948     1.3054     4.2991     4.2991    -0.89578    0.38565   -1.E-6      2.9894     895.78E-9  1.1528    
 0.52       0.30193   -0.63654    0.90578    12.893     4.2946     1.3054     4.2991     4.2991    -0.90578    0.38565   -1.E-6      2.9891     905.78E-9  1.1528    
 0.53       0.30526   -0.62654    0.91577    12.893     4.2943     1.3054     4.2991     4.2991    -0.91577    0.38565   -1.E-6      2.9889     915.77E-9  1.1526    
 0.54       0.30859   -0.61654    0.92577    12.892     4.294      1.3054     4.2991     4.2991    -0.92577    0.38564   -1.E-6      2.9886     925.77E-9  1.1525    
 0.55       0.31192   -0.60654    0.93577    12.892     4.2937     1.3054     4.2991     4.2991    -0.93577    0.38564   -1.E-6      2.9883     935.77E-9  1.1524    
 0.56       0.31526   -0.59654    0.94577    12.892     4.2934     1.3054     4.2991     4.2991    -0.94577    0.38564   -1.E-6      2.988      945.77E-9  1.1523    
 0.57       0.31859   -0.58654    0.95576    12.891     4.2931     1.3054     4.299      4.299     -0.95576    0.38564   -1.E-6      2.9877     955.76E-9  1.1521    
 0.58       0.32192   -0.57654    0.96576    12.891     4.2927     1.3054     4.299      4.299     -0.96576    0.38563   -1.E-6      2.9873     965.76E-9  1.152     
 0.59       0.32525   -0.56654    0.97576    12.89      4.2923     1.3054     4.299      4.299     -0.97576    0.38563   -1.E-6      2.9869     975.76E-9  1.1518    
 0.6        0.32858   -0.55654    0.98575    12.89      4.2919     1.3054     4.299      4.299     -0.98575    0.38562   -1.E-6      2.9865     985.75E-9  1.1517    
 0.61       0.33192   -0.54654    0.99575    12.889     4.2914     1.3054     4.299      4.299     -0.99575    0.38562   -1.E-6      2.986      995.75E-9  1.1515    
 0.62       0.33525   -0.53654    1.0057     12.889     4.2909     1.3054     4.2989     4.2989    -1.0057     0.38562   -1.E-6      2.9855     1.0057E-6  1.1513    
 0.63       0.33858   -0.52654    1.0157     12.888     4.2904     1.3054     4.2989     4.2989    -1.0157     0.38561   -1.E-6      2.985      1.0157E-6  1.151     
 0.64       0.34191   -0.51654    1.0257     12.888     4.2898     1.3054     4.2989     4.2989    -1.0257     0.38561   -1.E-6      2.9844     1.0257E-6  1.1508    
 0.65       0.34524   -0.50654    1.0357     12.887     4.2891     1.3054     4.2989     4.2989    -1.0357     0.3856    -1.E-6      2.9837     1.0357E-6  1.1505    
 0.66       0.34857   -0.49654    1.0457     12.886     4.2884     1.3054     4.2989     4.2989    -1.0457     0.38559   -1.E-6      2.983      1.0457E-6  1.1502    
 0.67       0.35191   -0.48654    1.0557     12.885     4.2877     1.3054     4.2989     4.2989    -1.0557     0.38559   -1.E-6      2.9823     1.0557E-6  1.1499    
 0.68       0.35524   -0.47654    1.0657     12.885     4.2869     1.3054     4.2988     4.2988    -1.0657     0.38558   -1.E-6      2.9814     1.0657E-6  1.1496    
 0.69       0.35857   -0.46654    1.0757     12.884     4.286      1.3054     4.2988     4.2988    -1.0757     0.38557   -1.E-6      2.9805     1.0757E-6  1.1492    
 0.7        0.3619    -0.45654    1.0857     12.883     4.285      1.3054     4.2988     4.2988    -1.0857     0.38557   -1.E-6      2.9796     1.0857E-6  1.1488    
 0.71       0.36523   -0.44654    1.0957     12.882     4.2839     1.3054     4.2988     4.2988    -1.0957     0.38556   -1.E-6      2.9785     1.0957E-6  1.1484    
 0.72       0.36856   -0.43654    1.1057     12.88      4.2828     1.3054     4.2988     4.2988    -1.1057     0.38555   -1.E-6      2.9774     1.1057E-6  1.1479    
 0.73       0.37189   -0.42654    1.1157     12.879     4.2816     1.3054     4.2988     4.2988    -1.1157     0.38554   -1.E-6      2.9761     1.1157E-6  1.1474    
 0.74       0.37522   -0.41654    1.1257     12.878     4.2802     1.3054     4.2987     4.2987    -1.1257     0.38552   -1.E-6      2.9748     1.1257E-6  1.1468    
 0.75       0.37855   -0.40654    1.1356     12.876     4.2787     1.3054     4.2987     4.2987    -1.1356     0.38551   -1.E-6      2.9733     1.1356E-6  1.1462    
 0.76       0.38188   -0.39654    1.1456     12.875     4.2771     1.3054     4.2987     4.2987    -1.1456     0.3855    -1.E-6      2.9717     1.1456E-6  1.1456    
 0.77       0.3852    -0.38654    1.1556     12.873     4.2754     1.3054     4.2987     4.2987    -1.1556     0.38548   -1.E-6      2.97       1.1556E-6  1.1449    
 0.78       0.38853   -0.37654    1.1656     12.871     4.2735     1.3054     4.2987     4.2987    -1.1656     0.38547   -1.E-6      2.9681     1.1656E-6  1.1441    
 0.79       0.39186   -0.36654    1.1756     12.869     4.2715     1.3054     4.2986     4.2986    -1.1756     0.38545   -1.E-6      2.966      1.1756E-6  1.1432    
 0.8        0.39519   -0.35654    1.1856     12.866     4.2692     1.3054     4.2986     4.2986    -1.1856     0.38543   -1.E-6      2.9638     1.1856E-6  1.1423    
 0.81       0.39851   -0.34654    1.1955     12.864     4.2668     1.3054     4.2986     4.2986    -1.1955     0.38541   -1.E-6      2.9614     1.1955E-6  1.1413    
 0.82       0.40184   -0.33654    1.2055     12.861     4.2641     1.3054     4.2986     4.2986    -1.2055     0.38538   -1.E-6      2.9587     1.2055E-6  1.1402    
 0.83       0.40516   -0.32654    1.2155     12.858     4.2613     1.3054     4.2986     4.2986    -1.2155     0.38536   -1.E-6      2.9558     1.2155E-6  1.1391    
 0.84       0.40849   -0.31655    1.2255     12.855     4.2581     1.3054     4.2986     4.2986    -1.2255     0.38533   -1.E-6      2.9527     1.2255E-6  1.1378    
 0.85       0.41181   -0.30655    1.2354     12.852     4.2547     1.3054     4.2985     4.2985    -1.2354     0.3853    -1.E-6      2.9493     1.2354E-6  1.1364    
 0.86       0.41513   -0.29655    1.2454     12.848     4.251      1.3054     4.2985     4.2985    -1.2454     0.38527   -1.E-6      2.9456     1.2454E-6  1.1348    
 0.87       0.41845   -0.28655    1.2554     12.844     4.2469     1.3054     4.2985     4.2985    -1.2554     0.38523   -1.E-6      2.9415     1.2554E-6  1.1332    
 0.88       0.42177   -0.27655    1.2653     12.84      4.2425     1.3054     4.2985     4.2985    -1.2653     0.38519   -1.E-6      2.9371     1.2653E-6  1.1314    
 0.89       0.42509   -0.26655    1.2753     12.835     4.2378     1.3054     4.2985     4.2985    -1.2753     0.38515   -1.E-6      2.9323     1.2753E-6  1.1294    
 0.9        0.42841   -0.25655    1.2852     12.829     4.2325     1.3054     4.2984     4.2984    -1.2852     0.38511   -1.E-6      2.9271     1.2852E-6  1.1273    
 0.91       0.43173   -0.24655    1.2952     12.824     4.2269     1.3054     4.2984     4.2984    -1.2952     0.38506   -1.E-6      2.9215     1.2952E-6  1.1249    
 0.92       0.43504   -0.23655    1.3051     12.818     4.2207     1.3054     4.2984     4.2984    -1.3051     0.385     -1.E-6      2.9153     1.3051E-6  1.1224    
 0.93       0.43836   -0.22655    1.3151     12.811     4.214      1.3054     4.2984     4.2984    -1.3151     0.38494   -1.E-6      2.9086     1.3151E-6  1.1196    
 0.94       0.44167   -0.21655    1.325      12.803     4.2067     1.3054     4.2984     4.2984    -1.325      0.38488   -1.E-6      2.9013     1.325E-6   1.1166    
 0.95       0.44498   -0.20655    1.3349     12.795     4.1987     1.3054     4.2984     4.2984    -1.3349     0.38481   -1.E-6      2.8933     1.3349E-6  1.1134    
 0.96       0.44829   -0.19655    1.3449     12.787     4.1901     1.3054     4.2983     4.2983    -1.3449     0.38473   -1.E-6      2.8847     1.3449E-6  1.1098    
 0.97       0.45159   -0.18655    1.3548     12.777     4.1807     1.3054     4.2983     4.2983    -1.3548     0.38464   -1.E-6      2.8753     1.3548E-6  1.106     
 0.98       0.45489   -0.17655    1.3647     12.767     4.1705     1.3054     4.2983     4.2983    -1.3647     0.38455   -1.E-6      2.8651     1.3647E-6  1.1018    
 0.99       0.45819   -0.16655    1.3746     12.756     4.1593     1.3054     4.2983     4.2983    -1.3746     0.38445   -1.E-6      2.8539     1.3746E-6  1.0972    
 1.         0.46149   -0.15655    1.3845     12.744     4.1472     1.3054     4.2983     4.2983    -1.3845     0.38434   -1.E-6      2.8418     1.3845E-6  1.0922    
 1.01       0.46478   -0.14655    1.3943     12.731     4.1341     1.3054     4.2982     4.2982    -1.3943     0.38422   -1.E-6      2.8287     1.3943E-6  1.0868    
 1.02       0.46807   -0.13655    1.4042     12.716     4.1198     1.3054     4.2982     4.2982    -1.4042     0.38409   -1.E-6      2.8144     1.4042E-6  1.081     
 1.03       0.47136   -0.12655    1.4141     12.701     4.1043     1.3054     4.2982     4.2982    -1.4141     0.38395   -1.E-6      2.7989     1.4141E-6  1.0746    
 1.04       0.47464   -0.11655    1.4239     12.684     4.0874     1.3054     4.2982     4.2982    -1.4239     0.38379   -1.E-6      2.782      1.4239E-6  1.0677    
 1.05       0.47792   -0.10655    1.4337     12.665     4.069      1.3054     4.2982     4.2982    -1.4337     0.38362   -1.E-6      2.7636     1.4337E-6  1.0602    
 1.06       0.48119   -0.096548   1.4436     12.645     4.0491     1.3054     4.2981     4.2981    -1.4436     0.38343   -1.E-6      2.7437     1.4436E-6  1.052     
 1.07       0.48445   -0.086548   1.4534     12.624     4.0275     1.3054     4.2981     4.2981    -1.4534     0.38323   -1.E-6      2.7221     1.4534E-6  1.0432    
 1.08       0.48771   -0.076548   1.4631     12.6       4.004      1.3054     4.2981     4.2981    -1.4631     0.383     -1.E-6      2.6986     1.4631E-6  1.0336    
 1.09       0.49096   -0.066548   1.4729     12.575     3.9786     1.3054     4.2981     4.2981    -1.4729     0.38276   -1.E-6      2.6732     1.4729E-6  1.0232    
 1.1        0.49421   -0.056549   1.4826     12.547     3.951      1.3054     4.298      4.298     -1.4826     0.38249   -1.E-6      2.6456     1.4826E-6  1.0119    
 1.11       0.49744   -0.046549   1.4923     12.517     3.921      1.3054     4.298      4.298     -1.4923     0.3822    -1.E-6      2.6157     1.4923E-6  0.99969   
 1.12       0.50067   -0.03655    1.502      12.485     3.8886     1.3054     4.298      4.298     -1.502      0.38187   -1.E-6      2.5832     1.502E-6   0.98647   
 1.13       0.50388   -0.02655    1.5116     12.449     3.8535     1.3054     4.298      4.298     -1.5116     0.38152   -1.E-6      2.5481     1.5116E-6  0.97216   
 1.14       0.50708   -0.016551   1.5213     12.411     3.8155     1.3054     4.298      4.298     -1.5213     0.38113   -1.E-6      2.5101     1.5213E-6  0.9567    
 1.15       0.51028   -0.0065511  1.5308     12.37      3.7745     1.3054     4.2979     4.2979    -1.5308     0.3807    -1.E-6      2.4691     1.5308E-6  0.93999   
 1.16       0.51345    0.0034484  1.5404     12.326     3.7301     1.3054     4.2979     4.2979    -1.5404     0.38024   -1.E-6      2.4247     1.5404E-6  0.92196   
 1.17       0.51661    0.013448   1.5498     12.278     3.6822     1.3054     4.2979     4.2979    -1.5498     0.37972   -1.E-6      2.3768     1.5498E-6  0.90252   
 1.18       0.51976    0.023447   1.5593     12.226     3.6305     1.3054     4.2979     4.2979    -1.5593     0.37915   -1.E-6      2.3252     1.5593E-6  0.88159   
