#           v(1)       v(4)       v(3)       i(Vbias)   i(Rs.Xcel1 i(Rs.Xcel4 i(Rs.Xcel1 i(Rs.Xcel1
 0.         0.57816   -1.1562     1.7345     9.9189     1.3189     1.3189     4.3        4.3       
 0.01       0.57816   -1.1462     1.7345     9.9188     1.3188     1.3188     4.3        4.3       
 0.02       0.57816   -1.1362     1.7345     9.9186     1.3187     1.3187     4.3        4.3       
 0.03       0.57816   -1.1262     1.7345     9.9185     1.3186     1.3186     4.2999     4.2999    
 0.04       0.57817   -1.1162     1.7345     9.9184     1.3185     1.3185     4.2999     4.2999    
 0.05       0.57817   -1.1062     1.7345     9.9182     1.3184     1.3184     4.2999     4.2999    
 0.06       0.57817   -1.0962     1.7345     9.9181     1.3183     1.3183     4.2999     4.2999    
 0.07       0.57817   -1.0862     1.7345     9.918      1.3182     1.3182     4.2999     4.2999    
 0.08       0.57817   -1.0762     1.7345     9.9178     1.3181     1.3181     4.2999     4.2999    
 0.09       0.57817   -1.0662     1.7345     9.9177     1.318      1.318      4.2998     4.2998    
 0.1        0.57817   -1.0562     1.7345     9.9176     1.3179     1.3179     4.2998     4.2998    
 0.11       0.57817   -1.0462     1.7345     9.9174     1.3178     1.3178     4.2998     4.2998    
 0.12       0.57818   -1.0363     1.7345     9.9173     1.3177     1.3177     4.2998     4.2998    
 0.13       0.57818   -1.0263     1.7345     9.9172     1.3176     1.3176     4.2998     4.2998    
 0.14       0.57818   -1.0163     1.7345     9.917      1.3175     1.3175     4.2998     4.2998    
 0.15       0.57818   -1.0063     1.7345     9.9169     1.3174     1.3174     4.2997     4.2997    
 0.16       0.57818   -0.99626    1.7345     9.9168     1.3173     1.3173     4.2997     4.2997    
 0.17       0.57818   -0.98627    1.7345     9.9166     1.3172     1.3172     4.2997     4.2997    
 0.18       0.57818   -0.97627    1.7346     9.9165     1.3171     1.3171     4.2997     4.2997    
 0.19       0.57818   -0.96627    1.7346     9.9164     1.317      1.317      4.2997     4.2997    
 0.2        0.57819   -0.95627    1.7346     9.9162     1.3169     1.3169     4.2997     4.2997    
 0.21       0.57819   -0.94628    1.7346     9.9161     1.3168     1.3168     4.2996     4.2996    
 0.22       0.57819   -0.93628    1.7346     9.916      1.3167     1.3167     4.2996     4.2996    
 0.23       0.57819   -0.92628    1.7346     9.9158     1.3166     1.3166     4.2996     4.2996    
 0.24       0.57819   -0.91628    1.7346     9.9157     1.3165     1.3165     4.2996     4.2996    
 0.25       0.57819   -0.90629    1.7346     9.9156     1.3164     1.3164     4.2996     4.2996    
 0.26       0.57819   -0.89629    1.7346     9.9154     1.3163     1.3163     4.2996     4.2996    
 0.27       0.5782    -0.88629    1.7346     9.9153     1.3162     1.3162     4.2995     4.2995    
 0.28       0.5782    -0.87629    1.7346     9.9152     1.3161     1.3161     4.2995     4.2995    
 0.29       0.5782    -0.8663     1.7346     9.915      1.316      1.316      4.2995     4.2995    
 0.3        0.5782    -0.8563     1.7346     9.9149     1.3159     1.3159     4.2995     4.2995    
 0.31       0.5782    -0.8463     1.7346     9.9148     1.3158     1.3158     4.2995     4.2995    
 0.32       0.5782    -0.8363     1.7346     9.9146     1.3157     1.3157     4.2995     4.2995    
 0.33       0.5782    -0.82631    1.7346     9.9145     1.3156     1.3156     4.2994     4.2994    
 0.34       0.5782    -0.81631    1.7346     9.9144     1.3155     1.3155     4.2994     4.2994    
 0.35       0.57821   -0.80631    1.7346     9.9142     1.3154     1.3154     4.2994     4.2994    
 0.36       0.57821   -0.79632    1.7346     9.9141     1.3153     1.3153     4.2994     4.2994    
 0.37       0.57821   -0.78632    1.7346     9.914      1.3152     1.3152     4.2994     4.2994    
 0.38       0.57821   -0.77632    1.7346     9.9138     1.3151     1.3151     4.2994     4.2994    
 0.39       0.57821   -0.76632    1.7346     9.9137     1.315      1.315      4.2993     4.2993    
 0.4        0.57821   -0.75633    1.7346     9.9136     1.3149     1.3149     4.2993     4.2993    
 0.41       0.57821   -0.74633    1.7346     9.9134     1.3148     1.3148     4.2993     4.2993    
 0.42       0.57822   -0.73633    1.7346     9.9133     1.3147     1.3147     4.2993     4.2993    
 0.43       0.57822   -0.72633    1.7346     9.9132     1.3146     1.3146     4.2993     4.2993    
 0.44       0.57822   -0.71634    1.7347     9.913      1.3145     1.3145     4.2993     4.2993    
 0.45       0.57822   -0.70634    1.7347     9.9129     1.3144     1.3144     4.2992     4.2992    
 0.46       0.57822   -0.69634    1.7347     9.9128     1.3143     1.3143     4.2992     4.2992    
 0.47       0.57822   -0.68634    1.7347     9.9126     1.3142     1.3142     4.2992     4.2992    
 0.48       0.57822   -0.67635    1.7347     9.9125     1.3141     1.3141     4.2992     4.2992    
 0.49       0.57822   -0.66635    1.7347     9.9124     1.314      1.314      4.2992     4.2992    
 0.5        0.57823   -0.65635    1.7347     9.9122     1.3139     1.3139     4.2992     4.2992    
 0.51       0.57823   -0.64635    1.7347     9.9121     1.3138     1.3138     4.2991     4.2991    
 0.52       0.57823   -0.63636    1.7347     9.912      1.3137     1.3137     4.2991     4.2991    
 0.53       0.57823   -0.62636    1.7347     9.9118     1.3136     1.3136     4.2991     4.2991    
 0.54       0.57823   -0.61636    1.7347     9.9117     1.3135     1.3135     4.2991     4.2991    
 0.55       0.57823   -0.60637    1.7347     9.9115     1.3134     1.3134     4.2991     4.2991    
 0.56       0.57823   -0.59637    1.7347     9.9114     1.3133     1.3133     4.2991     4.2991    
 0.57       0.57823   -0.58637    1.7347     9.9113     1.3132     1.3132     4.299      4.299     
 0.58       0.57824   -0.57637    1.7347     9.9111     1.3131     1.3131     4.299      4.299     
 0.59       0.57824   -0.56638    1.7347     9.911      1.313      1.313      4.299      4.299     
 0.6        0.57824   -0.55638    1.7347     9.9109     1.3129     1.3129     4.299      4.299     
 0.61       0.57824   -0.54638    1.7347     9.9107     1.3128     1.3128     4.299      4.299     
 0.62       0.57824   -0.53638    1.7347     9.9106     1.3127     1.3127     4.2989     4.2989    
 0.63       0.57824   -0.52639    1.7347     9.9105     1.3126     1.3126     4.2989     4.2989    
 0.64       0.57824   -0.51639    1.7347     9.9103     1.3125     1.3125     4.2989     4.2989    
 0.65       0.57825   -0.50639    1.7347     9.9102     1.3124     1.3124     4.2989     4.2989    
 0.66       0.57825   -0.49639    1.7347     9.9101     1.3123     1.3123     4.2989     4.2989    
 0.67       0.57825   -0.4864     1.7347     9.9099     1.3122     1.3122     4.2989     4.2989    
 0.68       0.57825   -0.4764     1.7347     9.9098     1.3121     1.3121     4.2988     4.2988    
 0.69       0.57825   -0.4664     1.7348     9.9097     1.312      1.312      4.2988     4.2988    
 0.7        0.57825   -0.4564     1.7348     9.9095     1.3119     1.3119     4.2988     4.2988    
 0.71       0.57825   -0.44641    1.7348     9.9094     1.3118     1.3118     4.2988     4.2988    
 0.72       0.57825   -0.43641    1.7348     9.9093     1.3117     1.3117     4.2988     4.2988    
 0.73       0.57826   -0.42641    1.7348     9.9091     1.3116     1.3116     4.2988     4.2988    
 0.74       0.57826   -0.41641    1.7348     9.909      1.3115     1.3115     4.2987     4.2987    
 0.75       0.57826   -0.40642    1.7348     9.9089     1.3114     1.3114     4.2987     4.2987    
 0.76       0.57826   -0.39642    1.7348     9.9087     1.3113     1.3113     4.2987     4.2987    
 0.77       0.57826   -0.38642    1.7348     9.9086     1.3112     1.3112     4.2987     4.2987    
 0.78       0.57826   -0.37643    1.7348     9.9084     1.3111     1.3111     4.2987     4.2987    
 0.79       0.57826   -0.36643    1.7348     9.9083     1.311      1.311      4.2986     4.2986    
 0.8        0.57826   -0.35643    1.7348     9.9082     1.3109     1.3109     4.2986     4.2986    
 0.81       0.57827   -0.34643    1.7348     9.908      1.3108     1.3108     4.2986     4.2986    
 0.82       0.57827   -0.33644    1.7348     9.9079     1.3107     1.3107     4.2986     4.2986    
 0.83       0.57827   -0.32644    1.7348     9.9078     1.3106     1.3106     4.2986     4.2986    
 0.84       0.57827   -0.31644    1.7348     9.9076     1.3105     1.3105     4.2986     4.2986    
 0.85       0.57827   -0.30644    1.7348     9.9075     1.3104     1.3104     4.2985     4.2985    
 0.86       0.57827   -0.29645    1.7348     9.9074     1.3103     1.3103     4.2985     4.2985    
 0.87       0.57827   -0.28645    1.7348     9.9072     1.3102     1.3102     4.2985     4.2985    
 0.88       0.57828   -0.27645    1.7348     9.9071     1.3101     1.3101     4.2985     4.2985    
 0.89       0.57828   -0.26645    1.7348     9.9069     1.31       1.31       4.2985     4.2985    
 0.9        0.57828   -0.25646    1.7348     9.9068     1.3099     1.3099     4.2984     4.2984    
 0.91       0.57828   -0.24646    1.7348     9.9067     1.3098     1.3098     4.2984     4.2984    
 0.92       0.57828   -0.23646    1.7348     9.9065     1.3097     1.3097     4.2984     4.2984    
 0.93       0.57828   -0.22646    1.7348     9.9064     1.3096     1.3096     4.2984     4.2984    
 0.94       0.57828   -0.21647    1.7348     9.9063     1.3095     1.3095     4.2984     4.2984    
 0.95       0.57828   -0.20647    1.7349     9.9061     1.3094     1.3094     4.2984     4.2984    
 0.96       0.57829   -0.19647    1.7349     9.906      1.3093     1.3093     4.2983     4.2983    
 0.97       0.57829   -0.18648    1.7349     9.9058     1.3092     1.3092     4.2983     4.2983    
 0.98       0.57829   -0.17648    1.7349     9.9057     1.3091     1.3091     4.2983     4.2983    
 0.99       0.57829   -0.16648    1.7349     9.9056     1.309      1.309      4.2983     4.2983    
 1.         0.57829   -0.15648    1.7349     9.9054     1.3089     1.3089     4.2983     4.2983    
 1.01       0.57829   -0.14649    1.7349     9.9053     1.3088     1.3088     4.2982     4.2982    
 1.02       0.57829   -0.13649    1.7349     9.9051     1.3087     1.3087     4.2982     4.2982    
 1.03       0.57829   -0.12649    1.7349     9.905      1.3086     1.3086     4.2982     4.2982    
 1.04       0.5783    -0.11649    1.7349     9.9049     1.3085     1.3085     4.2982     4.2982    
 1.05       0.5783    -0.1065     1.7349     9.9047     1.3084     1.3084     4.2982     4.2982    
 1.06       0.5783    -0.096499   1.7349     9.9046     1.3083     1.3083     4.2981     4.2981    
 1.07       0.5783    -0.086501   1.7349     9.9044     1.3082     1.3082     4.2981     4.2981    
 1.08       0.5783    -0.076504   1.7349     9.9043     1.3081     1.3081     4.2981     4.2981    
 1.09       0.5783    -0.066507   1.7349     9.9042     1.308      1.308      4.2981     4.2981    
 1.1        0.5783    -0.056509   1.7349     9.904      1.3079     1.3079     4.298      4.298     
 1.11       0.57831   -0.046512   1.7349     9.9039     1.3078     1.3078     4.298      4.298     
 1.12       0.57831   -0.036514   1.7349     9.9037     1.3077     1.3077     4.298      4.298     
 1.13       0.57831   -0.026517   1.7349     9.9036     1.3076     1.3076     4.298      4.298     
 1.14       0.57831   -0.01652    1.7349     9.9034     1.3075     1.3075     4.298      4.298     
 1.15       0.57831   -0.0065223  1.7349     9.9033     1.3074     1.3074     4.2979     4.2979    
 1.16       0.57831    0.003475   1.7349     9.9031     1.3073     1.3073     4.2979     4.2979    
 1.17       0.57831    0.013472   1.7349     9.903      1.3072     1.3072     4.2979     4.2979    
 1.18       0.57831    0.02347    1.7349     9.9029     1.3071     1.3071     4.2979     4.2979    
 1.19       0.57832    0.033467   1.7349     9.9027     1.307      1.307      4.2978     4.2978    
 1.2        0.57832    0.043465   1.735      9.9026     1.3069     1.3069     4.2978     4.2978    
 1.21       0.57832    0.053462   1.735      9.9024     1.3068     1.3068     4.2978     4.2978    
 1.22       0.57832    0.063459   1.735      9.9023     1.3067     1.3067     4.2978     4.2978    
 1.23       0.57832    0.073457   1.735      9.9021     1.3066     1.3066     4.2977     4.2977    
 1.24       0.57832    0.083454   1.735      9.902      1.3065     1.3065     4.2977     4.2977    
 1.25       0.57832    0.093451   1.735      9.9018     1.3064     1.3064     4.2977     4.2977    
 1.26       0.57833    0.10345    1.735      9.9017     1.3063     1.3063     4.2977     4.2977    
 1.27       0.57833    0.11345    1.735      9.9015     1.3062     1.3062     4.2976     4.2976    
 1.28       0.57833    0.12344    1.735      9.9013     1.3061     1.3061     4.2976     4.2976    
 1.29       0.57833    0.13344    1.735      9.9012     1.306      1.306      4.2976     4.2976    
 1.3        0.57833    0.14344    1.735      9.901      1.3059     1.3059     4.2976     4.2976    
 1.31       0.57833    0.15344    1.735      9.9009     1.3058     1.3058     4.2975     4.2975    
 1.32       0.57833    0.16343    1.735      9.9007     1.3057     1.3057     4.2975     4.2975    
 1.33       0.57833    0.17343    1.735      9.9006     1.3056     1.3056     4.2975     4.2975    
 1.34       0.57834    0.18343    1.735      9.9004     1.3055     1.3055     4.2974     4.2974    
 1.35       0.57834    0.19343    1.735      9.9002     1.3054     1.3054     4.2974     4.2974    
 1.36       0.57834    0.20342    1.735      9.9001     1.3053     1.3053     4.2974     4.2974    
 1.37       0.57834    0.21342    1.735      9.8999     1.3052     1.3052     4.2973     4.2973    
 1.38       0.57834    0.22342    1.735      9.8997     1.3051     1.3051     4.2973     4.2973    
 1.39       0.57834    0.23341    1.735      9.8996     1.305      1.305      4.2973     4.2973    
 1.4        0.57834    0.24341    1.735      9.8994     1.3049     1.3049     4.2972     4.2972    
 1.41       0.57834    0.25341    1.735      9.8992     1.3048     1.3048     4.2972     4.2972    
 1.42       0.57835    0.26341    1.735      9.8991     1.3047     1.3047     4.2972     4.2972    
 1.43       0.57835    0.2734     1.735      9.8989     1.3046     1.3046     4.2971     4.2971    
 1.44       0.57835    0.2834     1.735      9.8987     1.3045     1.3045     4.2971     4.2971    
 1.45       0.57835    0.2934     1.735      9.8985     1.3044     1.3044     4.2971     4.2971    
 1.46       0.57835    0.3034     1.7351     9.8984     1.3043     1.3043     4.297      4.297     
 1.47       0.57835    0.31339    1.7351     9.8982     1.3042     1.3042     4.297      4.297     
 1.48       0.57835    0.32339    1.7351     9.898      1.3041     1.3041     4.2969     4.2969    
 1.49       0.57836    0.33339    1.7351     9.8978     1.304      1.304      4.2969     4.2969    
 1.5        0.57836    0.34339    1.7351     9.8976     1.3039     1.3039     4.2969     4.2969    
 1.51       0.57836    0.35338    1.7351     9.8974     1.3038     1.3038     4.2968     4.2968    
 1.52       0.57836    0.36338    1.7351     9.8973     1.3037     1.3037     4.2968     4.2968    
 1.53       0.57836    0.37338    1.7351     9.8971     1.3036     1.3036     4.2967     4.2967    
 1.54       0.57836    0.38338    1.7351     9.8969     1.3035     1.3035     4.2967     4.2967    
 1.55       0.57836    0.39337    1.7351     9.8967     1.3034     1.3034     4.2966     4.2966    
 1.56       0.57836    0.40337    1.7351     9.8965     1.3033     1.3033     4.2966     4.2966    
 1.57       0.57837    0.41337    1.7351     9.8963     1.3032     1.3032     4.2965     4.2965    
 1.58       0.57837    0.42337    1.7351     9.896      1.3031     1.3031     4.2965     4.2965    
 1.59       0.57837    0.43336    1.7351     9.8958     1.303      1.303      4.2964     4.2964    
 1.6        0.57837    0.44336    1.7351     9.8956     1.3029     1.3029     4.2964     4.2964    
 1.61       0.57837    0.45336    1.7351     9.8954     1.3028     1.3028     4.2963     4.2963    
 1.62       0.57837    0.46335    1.7351     9.8952     1.3027     1.3027     4.2962     4.2962    
 1.63       0.57837    0.47335    1.7351     9.895      1.3026     1.3026     4.2962     4.2962    
 1.64       0.57837    0.48335    1.7351     9.8947     1.3025     1.3025     4.2961     4.2961    
 1.65       0.57838    0.49335    1.7351     9.8945     1.3024     1.3024     4.296      4.296     
 1.66       0.57838    0.50334    1.7351     9.8942     1.3023     1.3023     4.296      4.296     
 1.67       0.57838    0.51334    1.7351     9.894      1.3022     1.3022     4.2959     4.2959    
 1.68       0.57838    0.52334    1.7351     9.8938     1.3021     1.3021     4.2958     4.2958    
 1.69       0.57838    0.53334    1.7351     9.8935     1.302      1.302      4.2957     4.2957    
 1.7        0.57838    0.54333    1.7351     9.8932     1.3019     1.3019     4.2957     4.2957    
 1.71       0.57838    0.55333    1.7352     9.893      1.3018     1.3018     4.2956     4.2956    
 1.72       0.57839    0.56333    1.7352     9.8927     1.3017     1.3017     4.2955     4.2955    
 1.73       0.57839    0.57333    1.7352     9.8924     1.3016     1.3016     4.2954     4.2954    
 1.74       0.57839    0.58332    1.7352     9.8921     1.3015     1.3015     4.2953     4.2953    
 1.75       0.57839    0.59332    1.7352     9.8919     1.3014     1.3014     4.2952     4.2952    
 1.76       0.57839    0.60332    1.7352     9.8916     1.3013     1.3013     4.2951     4.2951    
 1.77       0.57839    0.61332    1.7352     9.8913     1.3012     1.3012     4.295      4.295     
 1.78       0.57839    0.62331    1.7352     9.8909     1.3011     1.3011     4.2949     4.2949    
 1.79       0.57839    0.63331    1.7352     9.8906     1.301      1.301      4.2948     4.2948    
 1.8        0.5784     0.64331    1.7352     9.8903     1.3009     1.3009     4.2947     4.2947    
 1.81       0.5784     0.65331    1.7352     9.89       1.3008     1.3008     4.2946     4.2946    
 1.82       0.5784     0.6633     1.7352     9.8896     1.3007     1.3007     4.2944     4.2944    
 1.83       0.5784     0.6733     1.7352     9.8893     1.3006     1.3006     4.2943     4.2943    
 1.84       0.5784     0.6833     1.7352     9.8889     1.3005     1.3005     4.2942     4.2942    
 1.85       0.5784     0.69329    1.7352     9.8885     1.3004     1.3004     4.2941     4.2941    
 1.86       0.5784     0.70329    1.7352     9.8881     1.3003     1.3003     4.2939     4.2939    
 1.87       0.5784     0.71329    1.7352     9.8877     1.3002     1.3002     4.2938     4.2938    
 1.88       0.57841    0.72329    1.7352     9.8873     1.3001     1.3001     4.2936     4.2936    
 1.89       0.57841    0.73328    1.7352     9.8869     1.3        1.3        4.2934     4.2934    
 1.9        0.57841    0.74328    1.7352     9.8865     1.2999     1.2999     4.2933     4.2933    
 1.91       0.57841    0.75328    1.7352     9.886      1.2998     1.2998     4.2931     4.2931    
 1.92       0.57841    0.76328    1.7352     9.8856     1.2997     1.2997     4.2929     4.2929    
 1.93       0.57841    0.77327    1.7352     9.8851     1.2996     1.2996     4.2927     4.2927    
 1.94       0.57841    0.78327    1.7352     9.8846     1.2995     1.2995     4.2926     4.2926    
 1.95       0.57842    0.79327    1.7352     9.8841     1.2994     1.2994     4.2923     4.2923    
 1.96       0.57842    0.80327    1.7352     9.8836     1.2993     1.2993     4.2921     4.2921    
 1.97       0.57842    0.81326    1.7353     9.8831     1.2992     1.2992     4.2919     4.2919    
 1.98       0.57842    0.82326    1.7353     9.8825     1.2991     1.2991     4.2917     4.2917    
